
**** 10/29/20 21:55:43 ****** PSpice Lite (October 2012) ****** ID# 10813 ****

 ** Profile: "SCHEMATIC1-r7"  [ F:\2) Second Year 2020-2021\Fall semester 2020-2021\EEE1024 Fundamentals of Electrical and Electronic


 ****     CIRCUIT DESCRIPTION


******************************************************************************




** Creating circuit file "r7.cir" 
** WARNING: THIS AUTOMATICALLY GENERATED FILE MAY BE OVERWRITTEN BY SUBSEQUENT SIMULATIONS

*Libraries: 
* Profile Libraries :
* Local Libraries :
* From [PSPICE NETLIST] section of C:\Users\Prashanth\AppData\Roaming\SPB_16.6\cdssetup\OrCAD_PSpice/16.6.0/PSpice.ini file:
.lib "nomd.lib" 

*Analysis directives: 
.AC DEC 200 1Hz 10KHz
.OPTIONS ADVCONV
.PROBE64 V(alias(*)) I(alias(*)) W(alias(*)) D(alias(*)) NOISE(alias(*)) 
.INC "..\SCHEMATIC1.net" 



**** INCLUDING SCHEMATIC1.net ****
* source STEADY STATE AC ANALYSIS
C_C1         N00375 0  0.000047  TC=0,0 
V_V1         N00367 0 DC 20Vdc AC 1Vac 
R_R1         N00367 N00375  200 TC=0,0 
V_V2         N00539 0 DC 20Vdc AC 1Vac 
R_R2         N00539 N00563  200 TC=0,0 
L_L1         N00563 0  0.047  
V_V3         N00856 0 DC 20Vdc AC 1Vac 
C_C3         N01032 0  0.000047  TC=0,0 
R_R3         N00856 N00880  200 TC=0,0 
L_L3         N00880 N01032  0.047  

**** RESUMING r7.cir ****
.END

**** 10/29/20 21:55:43 ****** PSpice Lite (October 2012) ****** ID# 10813 ****

 ** Profile: "SCHEMATIC1-r7"  [ F:\2) Second Year 2020-2021\Fall semester 2020-2021\EEE1024 Fundamentals of Electrical and Electronic


 ****     SMALL SIGNAL BIAS SOLUTION       TEMPERATURE =   27.000 DEG C


******************************************************************************



 NODE   VOLTAGE     NODE   VOLTAGE     NODE   VOLTAGE     NODE   VOLTAGE


(N00367)   20.0000 (N00375)   20.0000 (N00539)   20.0000 (N00563)    0.0000     

(N00856)   20.0000 (N00880)   20.0000 (N01032)   20.0000 




    VOLTAGE SOURCE CURRENTS
    NAME         CURRENT

    V_V1         0.000E+00
    V_V2        -1.000E-01
    V_V3         0.000E+00

    TOTAL POWER DISSIPATION   2.00E+00  WATTS



          JOB CONCLUDED

**** 10/29/20 21:55:43 ****** PSpice Lite (October 2012) ****** ID# 10813 ****

 ** Profile: "SCHEMATIC1-r7"  [ F:\2) Second Year 2020-2021\Fall semester 2020-2021\EEE1024 Fundamentals of Electrical and Electronic


 ****     JOB STATISTICS SUMMARY


******************************************************************************



  Total job time (using Solver 1)   =        0.00
